HEADER
"PSFversion" "1.00"
"simulator" "spectre"
"version" "11.1.0.509.isr14"
"date" "1:05:25 PM, Mon Dec 16, 2013"
"design" "// Generated for: inverter example"
"analysis type" "tran"
"analysis name" "tran"
"analysis description" "Transient Analysis `tran': time = (0 s -> 40 ns)"
"xVecSorted" "ascending"
"tolerance.relative" 0.00100000
"start" 0.00000
"outputstart" 0.00000
"stop" 4.00000e-08
"step" 4.00000e-11
"maxstep" 8.00000e-10
"ic" "all"
"useprevic" "no"
"skipdc" "no"
"reltol" 0.00100000
"abstol(V)" 1.00000e-06
"abstol(I)" 1.00000e-12
"temp" 27.0000
"tnom" 27.0000
"tempeffects" "all"
"errpreset" "moderate"
"method" "traponly"
"lteratio" 3.50000
"relref" "sigglobal"
"cmin" 0.00000
"gmin" 1.00000e-12
TYPE
"sweep" FLOAT DOUBLE PROP(
"key" "sweep"
)
"V" FLOAT DOUBLE PROP(
"units" "V"
"key" "node"
"tolerance" 1.00000e-06
)
"I" FLOAT DOUBLE PROP(
"units" "A"
"key" "branch"
"tolerance" 1.00000e-12
)
"MMF" FLOAT DOUBLE PROP(
"units" "A*turn"
"key" "node"
"tolerance" 1.00000e-12
)
"Wb" FLOAT DOUBLE PROP(
"units" "Wb"
"key" "node"
"tolerance" 1.00000e-09
)
"Temp" FLOAT DOUBLE PROP(
"units" "C"
"key" "node"
"tolerance" 0.000100000
)
"Pwr" FLOAT DOUBLE PROP(
"units" "W"
"key" "node"
"tolerance" 1.00000e-09
)
"U" FLOAT DOUBLE PROP(
"units" ""
"key" "node"
"tolerance" 1.00000e-06
)
"V/Sec" FLOAT DOUBLE PROP(
"units" "V/s"
"key" "node"
"tolerance" 0.000100000
)
"I/Sec" FLOAT DOUBLE PROP(
"units" "A/s"
"key" "node"
"tolerance" 1.00000e-06
)
"1/Sec" FLOAT DOUBLE PROP(
"units" "1/s"
"key" "node"
"tolerance" 0.000100000
)
"HOD" FLOAT DOUBLE PROP(
"units" ""
"key" "node"
"tolerance" 0.0100000
)
SWEEP
"time" "sweep" PROP(
"sweep_direction" 0
"units" "s"
"plot" 0
"grid" 1
)
TRACE
"_vip:p" "I"
"_vvdd:p" "I"
"_vvss:p" "I"
"ip" "V"
"vdd" "V"
"vss" "V"
VALUE
"time" 0.000000000000000e+00
"_vip:p" 0.000000000000000e+00
"_vvdd:p" 0.000000000000000e+00
"_vvss:p" 0.000000000000000e+00
"ip" 0.000000000000000e+00
"vdd" 3.000000000000000e+00
"vss" 0.000000000000000e+00
"time" 2.500000000000000e-11
"_vip:p" 0.000000000000000e+00
"_vvdd:p" 0.000000000000000e+00
"_vvss:p" 0.000000000000000e+00
"ip" 1.500000000000000e+00
"vdd" 3.000000000000000e+00
"vss" 0.000000000000000e+00
"time" 5.000000000000000e-11
"_vip:p" 0.000000000000000e+00
"_vvdd:p" 0.000000000000000e+00
"_vvss:p" 0.000000000000000e+00
"ip" 3.000000000000000e+00
"vdd" 3.000000000000000e+00
"vss" 0.000000000000000e+00
"time" 1.000000000000000e-10
"_vip:p" 0.000000000000000e+00
"_vvdd:p" 0.000000000000000e+00
"_vvss:p" 0.000000000000000e+00
"ip" 3.000000000000000e+00
"vdd" 3.000000000000000e+00
"vss" 0.000000000000000e+00
"time" 1.896505005028283e-10
"_vip:p" 0.000000000000000e+00
"_vvdd:p" 0.000000000000000e+00
"_vvss:p" 0.000000000000000e+00
"ip" 3.000000000000000e+00
"vdd" 3.000000000000000e+00
"vss" 0.000000000000000e+00
"time" 3.689515015084848e-10
"_vip:p" 0.000000000000000e+00
"_vvdd:p" 0.000000000000000e+00
"_vvss:p" 0.000000000000000e+00
"ip" 3.000000000000000e+00
"vdd" 3.000000000000000e+00
"vss" 0.000000000000000e+00
"time" 7.275535035197980e-10
"_vip:p" 0.000000000000000e+00
"_vvdd:p" 0.000000000000000e+00
"_vvss:p" 0.000000000000000e+00
"ip" 3.000000000000000e+00
"vdd" 3.000000000000000e+00
"vss" 0.000000000000000e+00
"time" 1.444757507542424e-09
"_vip:p" 0.000000000000000e+00
"_vvdd:p" 0.000000000000000e+00
"_vvss:p" 0.000000000000000e+00
"ip" 3.000000000000000e+00
"vdd" 3.000000000000000e+00
"vss" 0.000000000000000e+00
"time" 2.244757507542424e-09
"_vip:p" 0.000000000000000e+00
"_vvdd:p" 0.000000000000000e+00
"_vvss:p" 0.000000000000000e+00
"ip" 3.000000000000000e+00
"vdd" 3.000000000000000e+00
"vss" 0.000000000000000e+00
"time" 3.044757507542424e-09
"_vip:p" 0.000000000000000e+00
"_vvdd:p" 0.000000000000000e+00
"_vvss:p" 0.000000000000000e+00
"ip" 3.000000000000000e+00
"vdd" 3.000000000000000e+00
"vss" 0.000000000000000e+00
"time" 3.844757507542424e-09
"_vip:p" 0.000000000000000e+00
"_vvdd:p" 0.000000000000000e+00
"_vvss:p" 0.000000000000000e+00
"ip" 3.000000000000000e+00
"vdd" 3.000000000000000e+00
"vss" 0.000000000000000e+00
"time" 4.447378753771212e-09
"_vip:p" 0.000000000000000e+00
"_vvdd:p" 0.000000000000000e+00
"_vvss:p" 0.000000000000000e+00
"ip" 3.000000000000000e+00
"vdd" 3.000000000000000e+00
"vss" 0.000000000000000e+00
"time" 5.050000000000000e-09
"_vip:p" 0.000000000000000e+00
"_vvdd:p" 0.000000000000000e+00
"_vvss:p" 0.000000000000000e+00
"ip" 3.000000000000000e+00
"vdd" 3.000000000000000e+00
"vss" 0.000000000000000e+00
"time" 5.099999999999999e-09
"_vip:p" 0.000000000000000e+00
"_vvdd:p" 0.000000000000000e+00
"_vvss:p" 0.000000000000000e+00
"ip" 0.000000000000000e+00
"vdd" 3.000000000000000e+00
"vss" 0.000000000000000e+00
"time" 5.199999999999999e-09
"_vip:p" 0.000000000000000e+00
"_vvdd:p" 0.000000000000000e+00
"_vvss:p" 0.000000000000000e+00
"ip" 0.000000000000000e+00
"vdd" 3.000000000000000e+00
"vss" 0.000000000000000e+00
"time" 5.375689123645763e-09
"_vip:p" 0.000000000000000e+00
"_vvdd:p" 0.000000000000000e+00
"_vvss:p" 0.000000000000000e+00
"ip" 0.000000000000000e+00
"vdd" 3.000000000000000e+00
"vss" 0.000000000000000e+00
"time" 5.727067370937293e-09
"_vip:p" 0.000000000000000e+00
"_vvdd:p" 0.000000000000000e+00
"_vvss:p" 0.000000000000000e+00
"ip" 0.000000000000000e+00
"vdd" 3.000000000000000e+00
"vss" 0.000000000000000e+00
"time" 6.429823865520351e-09
"_vip:p" 0.000000000000000e+00
"_vvdd:p" 0.000000000000000e+00
"_vvss:p" 0.000000000000000e+00
"ip" 0.000000000000000e+00
"vdd" 3.000000000000000e+00
"vss" 0.000000000000000e+00
"time" 7.229823865520351e-09
"_vip:p" 0.000000000000000e+00
"_vvdd:p" 0.000000000000000e+00
"_vvss:p" 0.000000000000000e+00
"ip" 0.000000000000000e+00
"vdd" 3.000000000000000e+00
"vss" 0.000000000000000e+00
"time" 8.029823865520351e-09
"_vip:p" 0.000000000000000e+00
"_vvdd:p" 0.000000000000000e+00
"_vvss:p" 0.000000000000000e+00
"ip" 0.000000000000000e+00
"vdd" 3.000000000000000e+00
"vss" 0.000000000000000e+00
"time" 8.829823865520351e-09
"_vip:p" 0.000000000000000e+00
"_vvdd:p" 0.000000000000000e+00
"_vvss:p" 0.000000000000000e+00
"ip" 0.000000000000000e+00
"vdd" 3.000000000000000e+00
"vss" 0.000000000000000e+00
"time" 9.414911932760176e-09
"_vip:p" 0.000000000000000e+00
"_vvdd:p" 0.000000000000000e+00
"_vvss:p" 0.000000000000000e+00
"ip" 0.000000000000000e+00
"vdd" 3.000000000000000e+00
"vss" 0.000000000000000e+00
"time" 1.000000000000000e-08
"_vip:p" 0.000000000000000e+00
"_vvdd:p" 0.000000000000000e+00
"_vvss:p" 0.000000000000000e+00
"ip" 0.000000000000000e+00
"vdd" 3.000000000000000e+00
"vss" 0.000000000000000e+00
"time" 1.005000000000000e-08
"_vip:p" 0.000000000000000e+00
"_vvdd:p" 0.000000000000000e+00
"_vvss:p" 0.000000000000000e+00
"ip" 3.000000000000000e+00
"vdd" 3.000000000000000e+00
"vss" 0.000000000000000e+00
"time" 1.015000000000000e-08
"_vip:p" 0.000000000000000e+00
"_vvdd:p" 0.000000000000000e+00
"_vvss:p" 0.000000000000000e+00
"ip" 3.000000000000000e+00
"vdd" 3.000000000000000e+00
"vss" 0.000000000000000e+00
"time" 1.032431409658927e-08
"_vip:p" 0.000000000000000e+00
"_vvdd:p" 0.000000000000000e+00
"_vvss:p" 0.000000000000000e+00
"ip" 3.000000000000000e+00
"vdd" 3.000000000000000e+00
"vss" 0.000000000000000e+00
"time" 1.067294228976780e-08
"_vip:p" 0.000000000000000e+00
"_vvdd:p" 0.000000000000000e+00
"_vvss:p" 0.000000000000000e+00
"ip" 3.000000000000000e+00
"vdd" 3.000000000000000e+00
"vss" 0.000000000000000e+00
"time" 1.137019867612486e-08
"_vip:p" 0.000000000000000e+00
"_vvdd:p" 0.000000000000000e+00
"_vvss:p" 0.000000000000000e+00
"ip" 3.000000000000000e+00
"vdd" 3.000000000000000e+00
"vss" 0.000000000000000e+00
"time" 1.217019867612486e-08
"_vip:p" 0.000000000000000e+00
"_vvdd:p" 0.000000000000000e+00
"_vvss:p" 0.000000000000000e+00
"ip" 3.000000000000000e+00
"vdd" 3.000000000000000e+00
"vss" 0.000000000000000e+00
"time" 1.297019867612486e-08
"_vip:p" 0.000000000000000e+00
"_vvdd:p" 0.000000000000000e+00
"_vvss:p" 0.000000000000000e+00
"ip" 3.000000000000000e+00
"vdd" 3.000000000000000e+00
"vss" 0.000000000000000e+00
"time" 1.377019867612486e-08
"_vip:p" 0.000000000000000e+00
"_vvdd:p" 0.000000000000000e+00
"_vvss:p" 0.000000000000000e+00
"ip" 3.000000000000000e+00
"vdd" 3.000000000000000e+00
"vss" 0.000000000000000e+00
"time" 1.441009933806243e-08
"_vip:p" 0.000000000000000e+00
"_vvdd:p" 0.000000000000000e+00
"_vvss:p" 0.000000000000000e+00
"ip" 3.000000000000000e+00
"vdd" 3.000000000000000e+00
"vss" 0.000000000000000e+00
"time" 1.505000000000000e-08
"_vip:p" 0.000000000000000e+00
"_vvdd:p" 0.000000000000000e+00
"_vvss:p" 0.000000000000000e+00
"ip" 3.000000000000000e+00
"vdd" 3.000000000000000e+00
"vss" 0.000000000000000e+00
"time" 1.510000000000000e-08
"_vip:p" 0.000000000000000e+00
"_vvdd:p" 0.000000000000000e+00
"_vvss:p" 0.000000000000000e+00
"ip" 0.000000000000000e+00
"vdd" 3.000000000000000e+00
"vss" 0.000000000000000e+00
"time" 1.520000000000000e-08
"_vip:p" 0.000000000000000e+00
"_vvdd:p" 0.000000000000000e+00
"_vvss:p" 0.000000000000000e+00
"ip" 0.000000000000000e+00
"vdd" 3.000000000000000e+00
"vss" 0.000000000000000e+00
"time" 1.537854329460507e-08
"_vip:p" 0.000000000000000e+00
"_vvdd:p" 0.000000000000000e+00
"_vvss:p" 0.000000000000000e+00
"ip" 0.000000000000000e+00
"vdd" 3.000000000000000e+00
"vss" 0.000000000000000e+00
"time" 1.573562988381520e-08
"_vip:p" 0.000000000000000e+00
"_vvdd:p" 0.000000000000000e+00
"_vvss:p" 0.000000000000000e+00
"ip" 0.000000000000000e+00
"vdd" 3.000000000000000e+00
"vss" 0.000000000000000e+00
"time" 1.644980306223548e-08
"_vip:p" 0.000000000000000e+00
"_vvdd:p" 0.000000000000000e+00
"_vvss:p" 0.000000000000000e+00
"ip" 0.000000000000000e+00
"vdd" 3.000000000000000e+00
"vss" 0.000000000000000e+00
"time" 1.724980306223548e-08
"_vip:p" 0.000000000000000e+00
"_vvdd:p" 0.000000000000000e+00
"_vvss:p" 0.000000000000000e+00
"ip" 0.000000000000000e+00
"vdd" 3.000000000000000e+00
"vss" 0.000000000000000e+00
"time" 1.804980306223548e-08
"_vip:p" 0.000000000000000e+00
"_vvdd:p" 0.000000000000000e+00
"_vvss:p" 0.000000000000000e+00
"ip" 0.000000000000000e+00
"vdd" 3.000000000000000e+00
"vss" 0.000000000000000e+00
"time" 1.884980306223548e-08
"_vip:p" 0.000000000000000e+00
"_vvdd:p" 0.000000000000000e+00
"_vvss:p" 0.000000000000000e+00
"ip" 0.000000000000000e+00
"vdd" 3.000000000000000e+00
"vss" 0.000000000000000e+00
"time" 1.942490153111774e-08
"_vip:p" 0.000000000000000e+00
"_vvdd:p" 0.000000000000000e+00
"_vvss:p" 0.000000000000000e+00
"ip" 0.000000000000000e+00
"vdd" 3.000000000000000e+00
"vss" 0.000000000000000e+00
"time" 2.000000000000000e-08
"_vip:p" 0.000000000000000e+00
"_vvdd:p" 0.000000000000000e+00
"_vvss:p" 0.000000000000000e+00
"ip" 0.000000000000000e+00
"vdd" 3.000000000000000e+00
"vss" 0.000000000000000e+00
"time" 2.005000000000000e-08
"_vip:p" 0.000000000000000e+00
"_vvdd:p" 0.000000000000000e+00
"_vvss:p" 0.000000000000000e+00
"ip" 3.000000000000000e+00
"vdd" 3.000000000000000e+00
"vss" 0.000000000000000e+00
"time" 2.015000000000000e-08
"_vip:p" 0.000000000000000e+00
"_vvdd:p" 0.000000000000000e+00
"_vvss:p" 0.000000000000000e+00
"ip" 3.000000000000000e+00
"vdd" 3.000000000000000e+00
"vss" 0.000000000000000e+00
"time" 2.032352086921613e-08
"_vip:p" 0.000000000000000e+00
"_vvdd:p" 0.000000000000000e+00
"_vvss:p" 0.000000000000000e+00
"ip" 3.000000000000000e+00
"vdd" 3.000000000000000e+00
"vss" 0.000000000000000e+00
"time" 2.067056260764838e-08
"_vip:p" 0.000000000000000e+00
"_vvdd:p" 0.000000000000000e+00
"_vvss:p" 0.000000000000000e+00
"ip" 3.000000000000000e+00
"vdd" 3.000000000000000e+00
"vss" 0.000000000000000e+00
"time" 2.136464608451288e-08
"_vip:p" 0.000000000000000e+00
"_vvdd:p" 0.000000000000000e+00
"_vvss:p" 0.000000000000000e+00
"ip" 3.000000000000000e+00
"vdd" 3.000000000000000e+00
"vss" 0.000000000000000e+00
"time" 2.216464608451288e-08
"_vip:p" 0.000000000000000e+00
"_vvdd:p" 0.000000000000000e+00
"_vvss:p" 0.000000000000000e+00
"ip" 3.000000000000000e+00
"vdd" 3.000000000000000e+00
"vss" 0.000000000000000e+00
"time" 2.296464608451288e-08
"_vip:p" 0.000000000000000e+00
"_vvdd:p" 0.000000000000000e+00
"_vvss:p" 0.000000000000000e+00
"ip" 3.000000000000000e+00
"vdd" 3.000000000000000e+00
"vss" 0.000000000000000e+00
"time" 2.376464608451289e-08
"_vip:p" 0.000000000000000e+00
"_vvdd:p" 0.000000000000000e+00
"_vvss:p" 0.000000000000000e+00
"ip" 3.000000000000000e+00
"vdd" 3.000000000000000e+00
"vss" 0.000000000000000e+00
"time" 2.440732304225644e-08
"_vip:p" 0.000000000000000e+00
"_vvdd:p" 0.000000000000000e+00
"_vvss:p" 0.000000000000000e+00
"ip" 3.000000000000000e+00
"vdd" 3.000000000000000e+00
"vss" 0.000000000000000e+00
"time" 2.505000000000000e-08
"_vip:p" 0.000000000000000e+00
"_vvdd:p" 0.000000000000000e+00
"_vvss:p" 0.000000000000000e+00
"ip" 3.000000000000000e+00
"vdd" 3.000000000000000e+00
"vss" 0.000000000000000e+00
"time" 2.510000000000000e-08
"_vip:p" 0.000000000000000e+00
"_vvdd:p" 0.000000000000000e+00
"_vvss:p" 0.000000000000000e+00
"ip" 0.000000000000000e+00
"vdd" 3.000000000000000e+00
"vss" 0.000000000000000e+00
"time" 2.520000000000000e-08
"_vip:p" 0.000000000000000e+00
"_vvdd:p" 0.000000000000000e+00
"_vvss:p" 0.000000000000000e+00
"ip" 0.000000000000000e+00
"vdd" 3.000000000000000e+00
"vss" 0.000000000000000e+00
"time" 2.537875222779367e-08
"_vip:p" 0.000000000000000e+00
"_vvdd:p" 0.000000000000000e+00
"_vvss:p" 0.000000000000000e+00
"ip" 0.000000000000000e+00
"vdd" 3.000000000000000e+00
"vss" 0.000000000000000e+00
"time" 2.573625668338102e-08
"_vip:p" 0.000000000000000e+00
"_vvdd:p" 0.000000000000000e+00
"_vvss:p" 0.000000000000000e+00
"ip" 0.000000000000000e+00
"vdd" 3.000000000000000e+00
"vss" 0.000000000000000e+00
"time" 2.645126559455570e-08
"_vip:p" 0.000000000000000e+00
"_vvdd:p" 0.000000000000000e+00
"_vvss:p" 0.000000000000000e+00
"ip" 0.000000000000000e+00
"vdd" 3.000000000000000e+00
"vss" 0.000000000000000e+00
"time" 2.725126559455570e-08
"_vip:p" 0.000000000000000e+00
"_vvdd:p" 0.000000000000000e+00
"_vvss:p" 0.000000000000000e+00
"ip" 0.000000000000000e+00
"vdd" 3.000000000000000e+00
"vss" 0.000000000000000e+00
"time" 2.805126559455570e-08
"_vip:p" 0.000000000000000e+00
"_vvdd:p" 0.000000000000000e+00
"_vvss:p" 0.000000000000000e+00
"ip" 0.000000000000000e+00
"vdd" 3.000000000000000e+00
"vss" 0.000000000000000e+00
"time" 2.885126559455570e-08
"_vip:p" 0.000000000000000e+00
"_vvdd:p" 0.000000000000000e+00
"_vvss:p" 0.000000000000000e+00
"ip" 0.000000000000000e+00
"vdd" 3.000000000000000e+00
"vss" 0.000000000000000e+00
"time" 2.942563279727785e-08
"_vip:p" 0.000000000000000e+00
"_vvdd:p" 0.000000000000000e+00
"_vvss:p" 0.000000000000000e+00
"ip" 0.000000000000000e+00
"vdd" 3.000000000000000e+00
"vss" 0.000000000000000e+00
"time" 3.000000000000000e-08
"_vip:p" 0.000000000000000e+00
"_vvdd:p" 0.000000000000000e+00
"_vvss:p" 0.000000000000000e+00
"ip" 0.000000000000000e+00
"vdd" 3.000000000000000e+00
"vss" 0.000000000000000e+00
"time" 3.005000000000000e-08
"_vip:p" 0.000000000000000e+00
"_vvdd:p" 0.000000000000000e+00
"_vvss:p" 0.000000000000000e+00
"ip" 2.999999999999828e+00
"vdd" 3.000000000000000e+00
"vss" 0.000000000000000e+00
"time" 3.015000000000000e-08
"_vip:p" 0.000000000000000e+00
"_vvdd:p" 0.000000000000000e+00
"_vvss:p" 0.000000000000000e+00
"ip" 3.000000000000000e+00
"vdd" 3.000000000000000e+00
"vss" 0.000000000000000e+00
"time" 3.032346251731611e-08
"_vip:p" 0.000000000000000e+00
"_vvdd:p" 0.000000000000000e+00
"_vvss:p" 0.000000000000000e+00
"ip" 3.000000000000000e+00
"vdd" 3.000000000000000e+00
"vss" 0.000000000000000e+00
"time" 3.067038755194834e-08
"_vip:p" 0.000000000000000e+00
"_vvdd:p" 0.000000000000000e+00
"_vvss:p" 0.000000000000000e+00
"ip" 3.000000000000000e+00
"vdd" 3.000000000000000e+00
"vss" 0.000000000000000e+00
"time" 3.136423762121279e-08
"_vip:p" 0.000000000000000e+00
"_vvdd:p" 0.000000000000000e+00
"_vvss:p" 0.000000000000000e+00
"ip" 3.000000000000000e+00
"vdd" 3.000000000000000e+00
"vss" 0.000000000000000e+00
"time" 3.216423762121279e-08
"_vip:p" 0.000000000000000e+00
"_vvdd:p" 0.000000000000000e+00
"_vvss:p" 0.000000000000000e+00
"ip" 3.000000000000000e+00
"vdd" 3.000000000000000e+00
"vss" 0.000000000000000e+00
"time" 3.296423762121279e-08
"_vip:p" 0.000000000000000e+00
"_vvdd:p" 0.000000000000000e+00
"_vvss:p" 0.000000000000000e+00
"ip" 3.000000000000000e+00
"vdd" 3.000000000000000e+00
"vss" 0.000000000000000e+00
"time" 3.376423762121280e-08
"_vip:p" 0.000000000000000e+00
"_vvdd:p" 0.000000000000000e+00
"_vvss:p" 0.000000000000000e+00
"ip" 3.000000000000000e+00
"vdd" 3.000000000000000e+00
"vss" 0.000000000000000e+00
"time" 3.440711881060640e-08
"_vip:p" 0.000000000000000e+00
"_vvdd:p" 0.000000000000000e+00
"_vvss:p" 0.000000000000000e+00
"ip" 3.000000000000000e+00
"vdd" 3.000000000000000e+00
"vss" 0.000000000000000e+00
"time" 3.505000000000000e-08
"_vip:p" 0.000000000000000e+00
"_vvdd:p" 0.000000000000000e+00
"_vvss:p" 0.000000000000000e+00
"ip" 3.000000000000000e+00
"vdd" 3.000000000000000e+00
"vss" 0.000000000000000e+00
"time" 3.510000000000000e-08
"_vip:p" 0.000000000000000e+00
"_vvdd:p" 0.000000000000000e+00
"_vvss:p" 0.000000000000000e+00
"ip" 4.201083925181592e-13
"vdd" 3.000000000000000e+00
"vss" 0.000000000000000e+00
"time" 3.519999999999999e-08
"_vip:p" 0.000000000000000e+00
"_vvdd:p" 0.000000000000000e+00
"_vvss:p" 0.000000000000000e+00
"ip" 0.000000000000000e+00
"vdd" 3.000000000000000e+00
"vss" 0.000000000000000e+00
"time" 3.537876757819470e-08
"_vip:p" 0.000000000000000e+00
"_vvdd:p" 0.000000000000000e+00
"_vvss:p" 0.000000000000000e+00
"ip" 0.000000000000000e+00
"vdd" 3.000000000000000e+00
"vss" 0.000000000000000e+00
"time" 3.573630273458412e-08
"_vip:p" 0.000000000000000e+00
"_vvdd:p" 0.000000000000000e+00
"_vvss:p" 0.000000000000000e+00
"ip" 0.000000000000000e+00
"vdd" 3.000000000000000e+00
"vss" 0.000000000000000e+00
"time" 3.645137304736295e-08
"_vip:p" 0.000000000000000e+00
"_vvdd:p" 0.000000000000000e+00
"_vvss:p" 0.000000000000000e+00
"ip" 0.000000000000000e+00
"vdd" 3.000000000000000e+00
"vss" 0.000000000000000e+00
"time" 3.725137304736295e-08
"_vip:p" 0.000000000000000e+00
"_vvdd:p" 0.000000000000000e+00
"_vvss:p" 0.000000000000000e+00
"ip" 0.000000000000000e+00
"vdd" 3.000000000000000e+00
"vss" 0.000000000000000e+00
"time" 3.805137304736295e-08
"_vip:p" 0.000000000000000e+00
"_vvdd:p" 0.000000000000000e+00
"_vvss:p" 0.000000000000000e+00
"ip" 0.000000000000000e+00
"vdd" 3.000000000000000e+00
"vss" 0.000000000000000e+00
"time" 3.885137304736295e-08
"_vip:p" 0.000000000000000e+00
"_vvdd:p" 0.000000000000000e+00
"_vvss:p" 0.000000000000000e+00
"ip" 0.000000000000000e+00
"vdd" 3.000000000000000e+00
"vss" 0.000000000000000e+00
"time" 3.942568652368148e-08
"_vip:p" 0.000000000000000e+00
"_vvdd:p" 0.000000000000000e+00
"_vvss:p" 0.000000000000000e+00
"ip" 0.000000000000000e+00
"vdd" 3.000000000000000e+00
"vss" 0.000000000000000e+00
"time" 4.000000000000000e-08
"_vip:p" 0.000000000000000e+00
"_vvdd:p" 0.000000000000000e+00
"_vvss:p" 0.000000000000000e+00
"ip" 0.000000000000000e+00
"vdd" 3.000000000000000e+00
"vss" 0.000000000000000e+00
END
